!Agilent Technologies,N5221A,MY51411109,A.09.90.13
!Agilent N5221A: A.09.90.13
!Date: Monday, May 10, 2021 23:00:28
!Correction: S11(Full 1 Port(1)) 
!S1P File: Measurement: S11:
# Hz S  RI   R 50
3650000000 0.68425155 -0.71531433
3650062500 0.68412089 -0.71538144
3650125000 0.6840297 -0.71550149
3650187500 0.6839202 -0.71559942
3650250000 0.68384641 -0.71573037
3650312500 0.68371469 -0.7158199
3650375000 0.68363601 -0.71593034
3650437500 0.68350434 -0.71600974
3650500000 0.68341428 -0.7160992
3650562500 0.68329811 -0.71623629
3650625000 0.68317729 -0.71631116
3650687500 0.6831013 -0.71639407
3650750000 0.68297482 -0.71652746
3650812500 0.68287355 -0.71662825
3650875000 0.68278646 -0.71677142
3650937500 0.68268424 -0.71685261
3651000000 0.6825422 -0.71694046
3651062500 0.68244028 -0.71705288
3651125000 0.68229735 -0.71713883
3651187500 0.68222708 -0.71728826
3651250000 0.68209708 -0.71737152
3651312500 0.68194753 -0.71747631
3651375000 0.68188322 -0.7175923
3651437500 0.68175262 -0.71772403
3651500000 0.68161309 -0.71781623
3651562500 0.68152815 -0.71795458
3651625000 0.68135852 -0.71800756
3651687500 0.68128854 -0.71813625
3651750000 0.68117797 -0.71823472
3651812500 0.68105024 -0.71837801
3651875000 0.68093717 -0.71842861
3651937500 0.68084121 -0.71854192
3652000000 0.68074739 -0.71867889
3652062500 0.68063742 -0.71877742
3652125000 0.68051201 -0.71885222
3652187500 0.68037128 -0.71893585
3652250000 0.68028098 -0.71905947
3652312500 0.68021387 -0.71916252
3652375000 0.68003434 -0.71924299
3652437500 0.67996621 -0.71938503
3652500000 0.67985684 -0.71948457
3652562500 0.67974985 -0.71959788
3652625000 0.67959076 -0.719661
3652687500 0.67950088 -0.71979672
3652750000 0.67939758 -0.71989042
3652812500 0.67929029 -0.7199769
3652875000 0.67917573 -0.72009653
3652937500 0.6790579 -0.72020167
3653000000 0.67894787 -0.72033489
3653062500 0.67887068 -0.7204259
3653125000 0.67867941 -0.72049427
3653187500 0.67859298 -0.72065777
3653250000 0.67849469 -0.72077453
3653312500 0.67834699 -0.72088271
3653375000 0.67822367 -0.72096449
3653437500 0.67811286 -0.72106814
3653500000 0.6780104 -0.72121423
3653562500 0.67790973 -0.72130644
3653625000 0.67775685 -0.72143149
3653687500 0.67759567 -0.72151035
3653750000 0.67753798 -0.72164738
3653812500 0.6773771 -0.72172612
3653875000 0.67729408 -0.72185141
3653937500 0.67722309 -0.72199744
3654000000 0.67708081 -0.72206038
3654062500 0.6769833 -0.72222769
3654125000 0.67683113 -0.72228497
3654187500 0.67674345 -0.7224046
3654250000 0.67664319 -0.72252375
3654312500 0.67652255 -0.72263473
3654375000 0.67640716 -0.72274083
3654437500 0.6762467 -0.72280604
3654500000 0.67616844 -0.72294027
3654562500 0.67604721 -0.72307122
3654625000 0.67593843 -0.72315669
3654687500 0.67581928 -0.72326934
3654750000 0.67567778 -0.72335815
3654812500 0.6755932 -0.72344279
3654875000 0.67545348 -0.72354645
3654937500 0.67531514 -0.72365367
3655000000 0.67523205 -0.72377884
3655062500 0.67513072 -0.72396767
3655125000 0.6750387 -0.72403353
3655187500 0.67491329 -0.72412449
3655250000 0.67476618 -0.72422105
3655312500 0.67463958 -0.72431958
3655375000 0.67456627 -0.72445303
3655437500 0.67441308 -0.72452873
3655500000 0.67432123 -0.72468072
3655562500 0.6741699 -0.72477067
3655625000 0.67408609 -0.72488785
3655687500 0.67394722 -0.72496128
3655750000 0.67384833 -0.72510201
3655812500 0.67376631 -0.72523278
3655875000 0.67363298 -0.7253111
3655937500 0.67351246 -0.7254796
3656000000 0.67334497 -0.72552466
3656062500 0.6732583 -0.72567415
3656125000 0.67314488 -0.72577709
3656187500 0.67301571 -0.72583306
3656250000 0.67288661 -0.72597331
3656312500 0.67281908 -0.72611874
3656375000 0.67268294 -0.72620344
3656437500 0.67254257 -0.72628903
3656500000 0.67244309 -0.72642481
3656562500 0.67234361 -0.72651798
3656625000 0.67216408 -0.72660345
3656687500 0.67211568 -0.72673094
3656750000 0.67197555 -0.72683489
3656812500 0.6718623 -0.72697234
3656875000 0.6717329 -0.72708511
3656937500 0.67157853 -0.72721243
3657000000 0.67147565 -0.72731549
3657062500 0.6713708 -0.72743124
3657125000 0.67122132 -0.72752994
3657187500 0.67110252 -0.72765917
3657250000 0.67098075 -0.72776133
3657312500 0.6708343 -0.72783905
3657375000 0.67075312 -0.72799176
3657437500 0.67058486 -0.72812033
3657500000 0.67045766 -0.72818345
3657562500 0.67036092 -0.7283352
3657625000 0.67021662 -0.72842354
3657687500 0.67009068 -0.72855771
3657750000 0.66997981 -0.72865486
3657812500 0.6698342 -0.72875136
3657875000 0.66967565 -0.72887427
3657937500 0.6695857 -0.72900385
3658000000 0.66950148 -0.72909403
3658062500 0.66934657 -0.72918409
3658125000 0.66921139 -0.72925645
3658187500 0.66907686 -0.72938287
3658250000 0.66897082 -0.72950768
3658312500 0.66883743 -0.72961015
3658375000 0.66874397 -0.72972113
3658437500 0.66861153 -0.72982383
3658500000 0.66847283 -0.72990781
3658562500 0.66838229 -0.73002678
3658625000 0.66822988 -0.73018205
3658687500 0.66810399 -0.73026997
3658750000 0.66797692 -0.73039538
3658812500 0.66786021 -0.7304827
3658875000 0.66769689 -0.73058754
3658937500 0.66762763 -0.73075438
3659000000 0.66749477 -0.73084211
3659062500 0.66737956 -0.7309441
3659125000 0.66721576 -0.73112363
3659187500 0.66709167 -0.73124838
3659250000 0.66696095 -0.73134679
3659312500 0.66681993 -0.73148346
3659375000 0.66669083 -0.7316066
3659437500 0.66658396 -0.73164314
3659500000 0.66643071 -0.73179477
3659562500 0.66629255 -0.73188198
3659625000 0.66621149 -0.73201901
3659687500 0.66607952 -0.73214656
3659750000 0.66594368 -0.73220378
3659812500 0.66584069 -0.73236126
3659875000 0.66572136 -0.73246825
3659937500 0.66560483 -0.73255771
3660000000 0.66541797 -0.73265868
3660062500 0.66531229 -0.73277682
3660125000 0.66517955 -0.73287606
3660187500 0.6650725 -0.73301804
3660250000 0.66491038 -0.73307556
3660312500 0.66479367 -0.73324102
3660375000 0.66468817 -0.73333901
3660437500 0.66453242 -0.73347193
3660500000 0.66438603 -0.7336055
3660562500 0.66425705 -0.73368776
3660625000 0.66413778 -0.73381686
3660687500 0.66399145 -0.73395294
3660750000 0.66384512 -0.73408675
3660812500 0.66372895 -0.73415166
3660875000 0.6635828 -0.73427683
3660937500 0.66348362 -0.73438555
3661000000 0.66338503 -0.73451543
3661062500 0.66321963 -0.7345916
3661125000 0.66311246 -0.734712
3661187500 0.66292298 -0.73485506
3661250000 0.66282827 -0.73496753
3661312500 0.66261548 -0.73506743
3661375000 0.66253918 -0.73515868
3661437500 0.66242939 -0.73529601
3661500000 0.66229039 -0.73541445
3661562500 0.66211605 -0.73557222
3661625000 0.66199696 -0.7356168
3661687500 0.66189265 -0.73571968
3661750000 0.66172302 -0.73581314
3661812500 0.66164529 -0.73591977
3661875000 0.66150975 -0.73607486
3661937500 0.6613735 -0.73618561
3662000000 0.66126215 -0.73630565
3662062500 0.66109759 -0.73645478
3662125000 0.66095877 -0.7365247
3662187500 0.66088557 -0.73666209
3662250000 0.66070735 -0.73675287
3662312500 0.66055536 -0.73686558
3662375000 0.66048366 -0.73702276
3662437500 0.66031802 -0.73715997
3662500000 0.66014981 -0.73722678
3662562500 0.66004348 -0.73733008
3662625000 0.65991837 -0.73746353
3662687500 0.6597994 -0.73762798
3662750000 0.65965337 -0.73770863
3662812500 0.65947896 -0.73781627
3662875000 0.65937877 -0.73794264
3662937500 0.65920413 -0.73809457
3663000000 0.65906924 -0.7381807
3663062500 0.65893024 -0.73829871
3663125000 0.6587891 -0.73840082
3663187500 0.65865606 -0.73855579
3663250000 0.65852988 -0.73870641
3663312500 0.65834415 -0.73882365
3663375000 0.65822363 -0.73887593
3663437500 0.65808767 -0.73900574
3663500000 0.65793371 -0.73913264
3663562500 0.65783268 -0.73925781
3663625000 0.65765554 -0.73937362
3663687500 0.65750617 -0.73948687
3663750000 0.65737134 -0.7395947
3663812500 0.65723789 -0.73972273
3663875000 0.65711021 -0.7398569
3663937500 0.65696359 -0.74000633
3664000000 0.65682012 -0.74010104
3664062500 0.65666139 -0.74021089
3664125000 0.65653908 -0.74033219
3664187500 0.65637618 -0.74046993
3664250000 0.65625024 -0.74059314
3664312500 0.65605921 -0.74066818
3664375000 0.65591264 -0.74081701
3664437500 0.65578532 -0.7409302
3664500000 0.65560699 -0.74101484
3664562500 0.65551972 -0.74119794
3664625000 0.65536648 -0.74130446
3664687500 0.6552549 -0.74147886
3664750000 0.6550535 -0.74155235
3664812500 0.65487969 -0.74165225
3664875000 0.65475982 -0.74179918
3664937500 0.65461439 -0.74190813
3665000000 0.65445441 -0.7420454
3665062500 0.65433723 -0.74214786
3665125000 0.65414166 -0.74227232
3665187500 0.65400904 -0.74240351
3665250000 0.65386379 -0.74249035
3665312500 0.65371025 -0.74263906
3665375000 0.65357924 -0.74275041
3665437500 0.6534577 -0.74290073
3665500000 0.65332055 -0.7430346
3665562500 0.65312994 -0.74315286
3665625000 0.65299886 -0.74331301
3665687500 0.65284026 -0.74344158
3665750000 0.65268528 -0.74355853
3665812500 0.65252048 -0.74363828
3665875000 0.65241295 -0.74378103
3665937500 0.65224946 -0.74387813
3666000000 0.65207046 -0.74399889
3666062500 0.6519618 -0.74414933
3666125000 0.65175235 -0.7442435
3666187500 0.65163022 -0.74439156
3666250000 0.65144861 -0.7444371
3666312500 0.65131021 -0.74463075
3666375000 0.65116328 -0.7447232
3666437500 0.65102649 -0.74488556
3666500000 0.65086508 -0.74498028
3666562500 0.65070707 -0.74510616
3666625000 0.65057921 -0.74523741
3666687500 0.65041393 -0.74536306
3666750000 0.65027821 -0.74552149
3666812500 0.65015465 -0.74562544
3666875000 0.64996213 -0.74573797
3666937500 0.64980787 -0.74591368
3667000000 0.6496436 -0.74598533
3667062500 0.64951527 -0.74612951
3667125000 0.64936161 -0.74623919
3667187500 0.64918685 -0.74635863
3667250000 0.64899069 -0.74647015
3667312500 0.64883143 -0.74662465
3667375000 0.64865005 -0.74672478
3667437500 0.64856738 -0.74693555
3667500000 0.64836234 -0.74702942
3667562500 0.64819312 -0.74710661
3667625000 0.64803404 -0.74722087
3667687500 0.64792091 -0.74739671
3667750000 0.64773571 -0.74749732
3667812500 0.6475839 -0.74767321
3667875000 0.64742625 -0.74777639
3667937500 0.64726853 -0.74794227
3668000000 0.64714408 -0.74807101
3668062500 0.6470266 -0.74822503
3668125000 0.6467787 -0.74831522
3668187500 0.64663488 -0.74846888
3668250000 0.64644033 -0.74856406
3668312500 0.64628851 -0.74874133
3668375000 0.64610875 -0.74888217
3668437500 0.6459291 -0.7489658
3668500000 0.6457845 -0.74910742
3668562500 0.64559603 -0.74917823
3668625000 0.64543134 -0.74939978
3668687500 0.64525616 -0.74950129
3668750000 0.64507097 -0.74964529
3668812500 0.64492035 -0.74979895
3668875000 0.64472735 -0.74992526
3668937500 0.64456314 -0.75008076
3669000000 0.64440155 -0.750229
3669062500 0.64424402 -0.75035197
3669125000 0.64402854 -0.75051385
3669187500 0.64389133 -0.75061703
3669250000 0.64368755 -0.75075704
3669312500 0.64352286 -0.75088304
3669375000 0.64337987 -0.75105071
3669437500 0.64316076 -0.75116277
3669500000 0.64301836 -0.75132406
3669562500 0.64282161 -0.75144738
3669625000 0.64263195 -0.7516036
3669687500 0.64249015 -0.75168103
3669750000 0.64230305 -0.75189006
3669812500 0.64212322 -0.75201392
3669875000 0.64194983 -0.75217706
3669937500 0.64177132 -0.75233382
3670000000 0.64159119 -0.75240523
3670062500 0.64140213 -0.75259662
3670125000 0.64124864 -0.75271994
3670187500 0.64104623 -0.75286233
3670250000 0.64089382 -0.75297415
3670312500 0.6406666 -0.75313014
3670375000 0.64051819 -0.75325453
3670437500 0.64033872 -0.75341225
3670500000 0.64015526 -0.75354964
3670562500 0.63996708 -0.75365698
3670625000 0.63976818 -0.75380617
3670687500 0.63959479 -0.75399029
3670750000 0.63943237 -0.75409162
3670812500 0.63924867 -0.75423485
3670875000 0.63907248 -0.75439596
3670937500 0.63888282 -0.75452036
3671000000 0.63866919 -0.7546348
3671062500 0.63852894 -0.75475466
3671125000 0.6383248 -0.75486845
3671187500 0.63812679 -0.75506192
3671250000 0.63796425 -0.75522065
3671312500 0.63777173 -0.75528783
3671375000 0.63758153 -0.75551617
3671437500 0.63737279 -0.75565326
3671500000 0.63720906 -0.75583977
3671562500 0.63698232 -0.75600636
3671625000 0.6367597 -0.7561661
3671687500 0.63662243 -0.75624079
3671750000 0.63638514 -0.75644541
3671812500 0.63620406 -0.7566281
3671875000 0.63600868 -0.75674468
3671937500 0.6358341 -0.75693256
3672000000 0.63556498 -0.75705194
3672062500 0.6353792 -0.75714266
3672125000 0.63518935 -0.75733721
3672187500 0.63497692 -0.75750351
3672250000 0.63474947 -0.75761104
3672312500 0.63461971 -0.75778091
3672375000 0.6343748 -0.75799775
3672437500 0.63421005 -0.75810629
3672500000 0.63397926 -0.75823992
3672562500 0.63378 -0.75837004
3672625000 0.63357931 -0.75852662
3672687500 0.63341951 -0.75872022
3672750000 0.63317144 -0.75880015
3672812500 0.63296813 -0.75900131
3672875000 0.63275903 -0.75913566
3672937500 0.63249749 -0.75928932
3673000000 0.63235193 -0.75942582
3673062500 0.63212174 -0.75960004
3673125000 0.63187736 -0.75978833
3673187500 0.63162166 -0.75991023
3673250000 0.63146514 -0.76007116
3673312500 0.63123077 -0.76023346
3673375000 0.63105094 -0.76041096
3673437500 0.63084459 -0.76054329
3673500000 0.6306147 -0.76075155
3673562500 0.6303975 -0.76091874
3673625000 0.63013464 -0.76104957
3673687500 0.62999445 -0.76118499
3673750000 0.62975961 -0.76136357
3673812500 0.62958884 -0.76153195
3673875000 0.62930977 -0.76167113
3673937500 0.62907529 -0.76189905
3674000000 0.6288535 -0.76200992
3674062500 0.62866545 -0.76215136
3674125000 0.6283778 -0.76235098
3674187500 0.62818331 -0.76250446
3674250000 0.62791073 -0.7626909
3674312500 0.62772536 -0.76286948
3674375000 0.62751961 -0.76298791
3674437500 0.62727123 -0.76320845
3674500000 0.62702662 -0.76333654
3674562500 0.62676322 -0.76351637
3674625000 0.62653226 -0.76370323
3674687500 0.62627685 -0.7638796
3674750000 0.62608373 -0.76401424
3674812500 0.62585247 -0.76417196
3674875000 0.62560028 -0.764314
3674937500 0.62531078 -0.76452202
3675000000 0.62513065 -0.76470971
3675062500 0.62490022 -0.76487654
3675125000 0.62466973 -0.76505435
3675187500 0.62440968 -0.76516986
3675250000 0.62412757 -0.76541251
3675312500 0.62391853 -0.76550448
3675375000 0.62365007 -0.76570523
3675437500 0.62343109 -0.76587248
3675500000 0.62317771 -0.76607192
3675562500 0.62289268 -0.766249
3675625000 0.62270218 -0.76644832
3675687500 0.62239194 -0.76663184
3675750000 0.62214863 -0.76678652
3675812500 0.62192601 -0.76695442
3675875000 0.62161881 -0.76718402
3675937500 0.62143117 -0.76739669
3676000000 0.62117428 -0.76762551
3676062500 0.6209048 -0.76778686
3676125000 0.62064403 -0.76796216
3676187500 0.62038803 -0.76811492
3676250000 0.62009048 -0.76835692
3676312500 0.61984241 -0.76846844
3676375000 0.61957461 -0.76871198
3676437500 0.61922228 -0.76885253
3676500000 0.61897087 -0.76900965
3676562500 0.61874181 -0.76921922
3676625000 0.61845136 -0.76943672
3676687500 0.61817396 -0.76955873
3676750000 0.61785537 -0.76978785
3676812500 0.61754918 -0.7699855
3676875000 0.61727107 -0.7701543
3676937500 0.61701071 -0.77029115
3677000000 0.61664319 -0.77050555
3677062500 0.61638957 -0.77071649
3677125000 0.61604577 -0.77090931
3677187500 0.61581326 -0.77110583
3677250000 0.61553597 -0.77132922
3677312500 0.6152063 -0.77150792
3677375000 0.61487913 -0.77174348
3677437500 0.61461222 -0.77197975
3677500000 0.6143204 -0.77217251
3677562500 0.6140359 -0.77237439
3677625000 0.61370301 -0.77261353
3677687500 0.61342335 -0.77278739
3677750000 0.61308169 -0.77296889
3677812500 0.61273921 -0.77321637
3677875000 0.61247921 -0.77341557
3677937500 0.61215878 -0.77359277
3678000000 0.61186469 -0.77377433
3678062500 0.61151713 -0.77395427
3678125000 0.61117762 -0.77422899
3678187500 0.61089867 -0.77441067
3678250000 0.61054558 -0.77467185
3678312500 0.61024708 -0.7748189
3678375000 0.60988194 -0.7750538
3678437500 0.60954535 -0.77522904
3678500000 0.60918421 -0.77550989
3678562500 0.6088255 -0.77567774
3678625000 0.60847527 -0.77590674
3678687500 0.60812217 -0.77612388
3678750000 0.60780543 -0.77636367
3678812500 0.60745263 -0.77657127
3678875000 0.60709053 -0.77677178
3678937500 0.60673779 -0.77702826
3679000000 0.60636675 -0.77723515
3679062500 0.60604542 -0.77746844
3679125000 0.60562092 -0.7776919
3679187500 0.60520482 -0.77796745
3679250000 0.60487318 -0.77814537
3679312500 0.60447717 -0.77843887
3679375000 0.60409081 -0.77861524
3679437500 0.60375702 -0.77883786
3679500000 0.60338569 -0.77906919
3679562500 0.60296923 -0.779351
3679625000 0.60260028 -0.77958292
3679687500 0.60222691 -0.77983242
3679750000 0.60178405 -0.77998149
3679812500 0.60140288 -0.78025723
3679875000 0.60098511 -0.78051245
3679937500 0.60059637 -0.78077918
3680000000 0.60018897 -0.78099126
3680062500 0.59970772 -0.78122371
3680125000 0.59936088 -0.78153235
3680187500 0.598885 -0.78178668
3680250000 0.59847438 -0.78207523
3680312500 0.59803951 -0.78229856
3680375000 0.59759998 -0.78262699
3680437500 0.59713364 -0.78286302
3680500000 0.5967232 -0.78313309
3680562500 0.59624153 -0.78336579
3680625000 0.59584373 -0.7836467
3680687500 0.59539765 -0.7839033
3680750000 0.59492052 -0.78415293
3680812500 0.59444565 -0.78439182
3680875000 0.59397459 -0.78467447
3680937500 0.59346646 -0.78489357
3681000000 0.59297395 -0.78518403
3681062500 0.59248894 -0.78547853
3681125000 0.59201282 -0.78573847
3681187500 0.59151226 -0.78600144
3681250000 0.5910024 -0.78626913
3681312500 0.5904786 -0.78658152
3681375000 0.58996773 -0.78685308
3681437500 0.58944595 -0.78712171
3681500000 0.5889141 -0.78744155
3681562500 0.58840656 -0.78774714
3681625000 0.58780921 -0.78801447
3681687500 0.58725929 -0.78828079
3681750000 0.58673406 -0.78854328
3681812500 0.58609527 -0.78882664
3681875000 0.58557606 -0.78919595
3681937500 0.58497071 -0.78942841
3682000000 0.58444649 -0.7898041
3682062500 0.58380234 -0.79008853
3682125000 0.58323359 -0.79032022
3682187500 0.58256096 -0.79066575
3682250000 0.58196843 -0.79095596
3682312500 0.58140457 -0.7913053
3682375000 0.58080584 -0.7915976
3682437500 0.580091 -0.79194844
3682500000 0.57949084 -0.79222631
3682562500 0.57882762 -0.79256529
3682625000 0.57819217 -0.79288888
3682687500 0.57754737 -0.79321402
3682750000 0.57688349 -0.79355127
3682812500 0.57619476 -0.79387683
3682875000 0.57541776 -0.79421711
3682937500 0.57475519 -0.79458249
3683000000 0.57404816 -0.79493052
3683062500 0.57331061 -0.79522741
3683125000 0.57260311 -0.79553878
3683187500 0.5718388 -0.7959407
3683250000 0.57107335 -0.7962833
3683312500 0.57031882 -0.79657906
3683375000 0.56953418 -0.79693013
3683437500 0.56875634 -0.79726309
3683500000 0.56797522 -0.79768759
3683562500 0.56716889 -0.79799944
3683625000 0.5663197 -0.798379
3683687500 0.56548405 -0.7987318
3683750000 0.56463295 -0.7991215
3683812500 0.56368619 -0.79943615
3683875000 0.56290656 -0.79982013
3683937500 0.56195515 -0.80019557
3684000000 0.5610525 -0.80057693
3684062500 0.56011814 -0.80098635
3684125000 0.55914044 -0.80132496
3684187500 0.55817997 -0.80172104
3684250000 0.55725485 -0.80213672
3684312500 0.55627215 -0.80253148
3684375000 0.55522943 -0.80297959
3684437500 0.55422205 -0.80330139
3684500000 0.55316281 -0.80372626
3684562500 0.55215663 -0.80410999
3684625000 0.55102974 -0.80453819
3684687500 0.54995972 -0.80490947
3684750000 0.54885668 -0.80534977
3684812500 0.54766649 -0.80571711
3684875000 0.5465157 -0.80618912
3684937500 0.54536545 -0.80660409
3685000000 0.54414427 -0.80696803
3685062500 0.54294229 -0.80736202
3685125000 0.5416258 -0.80781847
3685187500 0.54038495 -0.80821013
3685250000 0.53907764 -0.80865085
3685312500 0.5377624 -0.80909342
3685375000 0.53632647 -0.80953085
3685437500 0.53496128 -0.80995667
3685500000 0.53356123 -0.81039375
